# HZ S DB R 50
10000000 -10.0294173 -1.1291575 -3.17794592 0.49164277 -3.218017308 0.4015207 -10.00499651 -1.3988088
259950000 -10.30284688 -3.7554734 -3.130784608 -4.9354606 -3.131928701 -4.9598513 -10.24763267 -2.6133788
509900000 -10.22233364 -11.264422 -3.322722574 -7.2300987 -3.323716869 -7.2632198 -10.06001934 -10.037231
759850000 -10.6542237 -19.041111 -3.307272794 -10.501191 -3.304266285 -10.5562 -10.61068474 -18.481237
1009800000 -11.39857213 -16.117765 -3.443259886 -15.99795 -3.439686713 -16.070358 -11.23666411 -15.44642
1259750000 -11.96785024 -24.825857 -3.375889113 -17.975016 -3.374446628 -18.053293 -11.92912239 -23.667038
1509700000 -12.41656255 -19.957966 -3.851926032 -22.857391 -3.846816603 -22.933426 -12.34017417 -16.398945
1759650000 -11.53487308 -16.849594 -4.014849277 -23.216158 -4.007604401 -23.304514 -11.18501164 -16.482246
2009600000 -11.2770315 -27.167622 -3.78913164 -27.744959 -3.783089679 -27.851938 -11.484031 -25.031324
2259550000 -11.67425892 -28.80924 -4.058576731 -30.560019 -4.054984019 -30.677395 -11.46712094 -23.034779
2509500000 -11.46963456 -30.785015 -4.169409114 -33.52623 -4.165419075 -33.658951 -11.07609125 -30.143353
2759450000 -11.3536406 -37.875813 -4.276312198 -36.428982 -4.274529447 -36.564426 -11.43399536 -34.35157
3009400000 -12.14174333 -40.050949 -4.403472199 -39.256737 -4.403460951 -39.403496 -11.88022698 -34.128574
3259350000 -12.23904542 -44.340492 -4.475070762 -42.120811 -4.478630038 -42.270164 -12.00006201 -40.563679
3509300000 -12.6509448 -44.979267 -4.592350903 -46.103001 -4.595411003 -46.252811 -12.61489819 -40.311897
3759250000 -12.79401695 -47.16198 -4.985374747 -48.292599 -4.986281025 -48.429092 -12.90014501 -41.081539
4009200000 -13.10462622 -49.436855 -5.021312408 -50.610535 -5.018208289 -50.764416 -12.84721567 -41.242569
4259150000 -13.12860175 -51.068073 -5.162242874 -53.284733 -5.159757545 -53.432758 -12.86240682 -45.372223
4509100000 -13.30617718 -51.35635 -5.294288804 -56.327274 -5.29298412 -56.484722 -13.20969243 -45.051243
4759050000 -13.03213147 -54.983307 -5.478138162 -58.897057 -5.478701384 -59.045559 -12.87737516 -47.73262
5009000000 -13.51962248 -59.267929 -5.638604424 -61.775112 -5.638259642 -61.929195 -13.18383968 -51.171707
5258950000 -13.91839494 -61.092171 -5.861657097 -64.245178 -5.86185837 -64.415527 -13.69668864 -53.925354
5508900000 -14.15053849 -59.877216 -6.049265606 -66.47242 -6.048445427 -66.667542 -13.93898501 -51.377071
5758850000 -14.03729077 -61.78598 -6.225809086 -68.831459 -6.224602138 -69.036049 -13.73454569 -52.462017
6008800000 -14.27654254 -63.970779 -6.429309572 -71.015289 -6.427301381 -71.235001 -13.78002605 -55.250454
6258750000 -14.47745233 -63.995422 -6.546358572 -73.026505 -6.544293432 -73.251984 -14.0697991 -55.261879
6508700000 -14.31537904 -64.75042 -6.707553055 -75.657669 -6.704184484 -75.88324 -13.88299215 -54.936089
6758650000 -14.23678013 -67.058823 -6.914444296 -77.953461 -6.910707764 -78.174263 -13.71412442 -57.528725
7008600000 -14.23856079 -69.530151 -7.130437571 -80.064308 -7.12909756 -80.281815 -13.72071751 -59.722847
7258550000 -14.39246373 -71.189651 -7.3100451 -82.093018 -7.308199783 -82.331215 -13.78450036 -61.581436
7508500000 -14.36128341 -72.823479 -7.498598524 -84.149963 -7.497469832 -84.385941 -13.75741802 -63.241085
7758450000 -14.41828536 -75.91217 -7.670045041 -85.970474 -7.669626848 -86.208717 -13.79021347 -66.251564
8008400000 -14.71716203 -77.467148 -7.821208994 -88.238869 -7.823869328 -88.490593 -14.08890341 -67.621307
8258350000 -14.83225376 -78.347923 -8.032826882 -90.005867 -8.032690442 -90.269867 -14.11501818 -68.20163
8508300000 -14.78426949 -78.674957 -8.189339211 -92.079712 -8.189844962 -92.35878 -14.04104931 -69.177483
8758250000 -14.7598181 -81.152512 -8.389903874 -93.744156 -8.387124197 -94.017197 -13.95344551 -71.357491
9008200000 -14.85857805 -82.673744 -8.545484722 -95.611183 -8.544973166 -95.884865 -14.01655909 -73.449402
9258150000 -14.87700572 -83.841026 -8.707347104 -97.384438 -8.704344015 -97.675163 -14.06339662 -75.093132
9508100000 -14.88532267 -85.528023 -8.856661291 -99.223289 -8.853606862 -99.53566 -14.06691905 -76.073074
9758050000 -14.90556093 -86.821762 -9.010958337 -101.15 -9.011351258 -101.45316 -14.02021354 -77.304695
10008000000 -14.83164341 -88.355522 -9.198459299 -103.04697 -9.199696907 -103.33382 -13.95569566 -79.358902
10257950000 -14.83351628 -90.408684 -9.387086698 -104.81504 -9.385705403 -105.13747 -14.00359094 -81.409622
10507900000 -14.87836147 -92.693443 -9.56337186 -106.31718 -9.561326337 -106.63947 -14.0458479 -83.79245
10757850000 -15.01559783 -94.137009 -9.702771591 -108.12265 -9.702214468 -108.4293 -14.23221517 -85.014626
11007800000 -15.00663173 -94.919235 -9.861055613 -109.86279 -9.860872613 -110.18487 -14.19051053 -86.115822
11257750000 -14.96990211 -96.547119 -10.05769613 -111.67484 -10.05378285 -112.01545 -14.09911683 -87.46167
11507700000 -14.9819742 -98.419724 -10.24406482 -113.06372 -10.23874812 -113.3961 -14.10958298 -89.807533
11757650000 -15.07297391 -99.616684 -10.37324405 -114.57427 -10.36586584 -114.93999 -14.14384121 -91.193436
12007600000 -15.06500787 -100.64741 -10.54873139 -116.32111 -10.54450692 -116.69296 -14.10528661 -92.377686
12257550000 -15.0507493 -102.37016 -10.71390656 -117.79473 -10.70970681 -118.16484 -14.06706645 -93.995598
12507500000 -15.06421905 -103.6181 -10.86595311 -119.31827 -10.8652585 -119.70477 -14.04979709 -95.624847
12757450000 -14.98840238 -104.63828 -11.03916421 -120.92454 -11.03160385 -121.33038 -13.98426207 -96.917381
13007400000 -14.90434587 -106.58566 -11.21546605 -122.30914 -11.21014999 -122.71824 -13.91023038 -98.898811
13257350000 -14.9551096 -108.68114 -11.36958035 -123.56802 -11.36302157 -123.97508 -13.98714223 -100.88557
13507300000 -14.9980338 -109.74049 -11.49703394 -124.99319 -11.49067759 -125.40765 -14.01914239 -102.33634
13757250000 -14.89050418 -111.15418 -11.65711574 -126.48583 -11.65332247 -126.90835 -13.98712571 -104.1351
14007200000 -14.87839855 -113.59645 -11.80593281 -127.70076 -11.80540565 -128.13759 -14.02021485 -106.08587
14257150000 -15.001764 -114.70653 -11.93110642 -129.10231 -11.92731609 -129.5309 -14.04870784 -107.6477
14507100000 -14.88461651 -115.4705 -12.08522638 -130.50171 -12.08284271 -130.95366 -14.01584033 -108.9621
14757050000 -14.80717075 -117.78606 -12.2245442 -131.67084 -12.21875821 -132.14761 -13.97105696 -110.75397
15007000000 -14.88700562 -119.41267 -12.34178246 -133.00229 -12.33879448 -133.47589 -14.0286071 -112.49124
15256950000 -14.89029389 -120.31364 -12.46264034 -134.34517 -12.45944499 -134.79639 -14.01453468 -114.06893
15506900000 -14.79611238 -121.79877 -12.59004908 -135.70313 -12.59079968 -136.22633 -13.98224388 -115.53746
15756850000 -14.77783868 -123.5807 -12.73130015 -136.99365 -12.72709413 -137.49634 -13.95247175 -117.09417
16006800000 -14.83380475 -125.02647 -12.84195262 -138.23669 -12.83815804 -138.71149 -13.94076012 -118.63976
16256750000 -14.79629989 -125.95209 -12.94695312 -139.61261 -12.94684784 -140.09106 -13.95495854 -120.01311
16506700000 -14.70234925 -127.81152 -13.08974517 -140.98715 -13.08459328 -141.47836 -13.95514043 -121.49643
16756650000 -14.79516012 -129.60959 -13.21674315 -142.18073 -13.21636247 -142.70619 -13.98804163 -123.03064
17006600000 -14.80063228 -130.13445 -13.33895117 -143.36354 -13.33664309 -143.8855 -13.96501428 -124.59011
17256550000 -14.65709411 -131.69354 -13.42918089 -144.57538 -13.42782519 -145.0768 -13.96464184 -126.33155
17506500000 -14.71618245 -133.40497 -13.54872025 -146.03958 -13.5490141 -146.54335 -14.03642909 -127.53331
17756450000 -14.73415243 -134.20938 -13.68068415 -147.26524 -13.67857165 -147.79105 -13.96944091 -128.93031
18006400000 -14.58856032 -135.23651 -13.80438181 -148.36272 -13.80401279 -148.86301 -13.90454674 -130.46091
18256350000 -14.51923335 -137.31651 -13.898076 -149.49376 -13.90077923 -149.9912 -13.90121995 -132.18834
18506300000 -14.59208189 -139.27167 -13.9739948 -150.74467 -13.9737843 -151.28291 -13.91815473 -133.90367
18756250000 -14.64917055 -139.62846 -14.08890341 -152.08957 -14.08517906 -152.65314 -13.89596116 -134.73692
19006200000 -14.47097027 -140.84744 -14.2040997 -153.38611 -14.20119928 -153.92743 -13.80873072 -136.31468
19256150000 -14.44011825 -142.99208 -14.31496465 -154.55077 -14.31399825 -155.04605 -13.8224981 -137.696
19506100000 -14.54518858 -144.26036 -14.41290543 -155.6069 -14.40895424 -156.15474 -13.79637044 -138.95811
19756050000 -14.42695843 -144.93706 -14.50172195 -156.75674 -14.49612418 -157.29459 -13.79081563 -140.54918
20006000000 -14.38778163 -147.08591 -14.57784781 -158.01994 -14.57559479 -158.54265 -13.84211327 -141.90822
20255950000 -14.48888945 -148.10054 -14.67640269 -159.34097 -14.67380642 -159.93134 -13.84927059 -142.73895
20505900000 -14.39816597 -148.58076 -14.79613624 -160.50092 -14.7955351 -161.0634 -13.78917966 -144.15302
20755850000 -14.23437279 -150.02293 -14.89201833 -161.57961 -14.88828095 -162.15924 -13.73981451 -145.69505
21005800000 -14.23251698 -151.86536 -14.96778985 -162.65656 -14.965664 -163.21774 -13.77128742 -147.32219
21255750000 -14.27028588 -152.98184 -15.03704286 -163.80212 -15.03582741 -164.39284 -13.75248587 -148.82442
21505700000 -14.20794317 -153.55475 -15.12467235 -165.06013 -15.12192967 -165.66457 -13.71102555 -150.15211
21755650000 -14.07325915 -155.13081 -15.21549741 -166.2464 -15.20814004 -166.83902 -13.66430492 -151.74355
22005600000 -14.16467655 -156.97873 -15.30816885 -167.40335 -15.30140766 -167.99699 -13.66007417 -152.91049
22255550000 -14.19295648 -157.22995 -15.38086859 -168.5094 -15.3772434 -169.12909 -13.60504402 -154.09419
22505500000 -14.02534903 -158.58789 -15.45013354 -169.68242 -15.44949105 -170.30931 -13.5732018 -155.51476
22755450000 -14.10696911 -160.60406 -15.52958434 -170.8667 -15.52720747 -171.5051 -13.60839866 -156.42116
23005400000 -14.16837123 -160.77255 -15.61274051 -172.00894 -15.608288 -172.67224 -13.57376589 -157.41106
23255350000 -14.01361945 -161.73657 -15.68686546 -173.17781 -15.6815247 -173.82727 -13.52143752 -158.67113
23505300000 -13.97162579 -163.464 -15.7565751 -174.33598 -15.74834362 -174.96831 -13.53790303 -160.09605
23755250000 -13.98022572 -164.49553 -15.82885229 -175.53577 -15.82434456 -176.17715 -13.53021609 -161.19638
24005200000 -13.96218869 -165.37544 -15.90369452 -176.75291 -15.90750127 -177.36316 -13.50297119 -162.26854
24255150000 -13.82307392 -166.12386 -15.97335558 -177.89674 -15.98377607 -178.50002 -13.43949859 -163.82431
24505100000 -13.73965566 -168.10606 -16.04509357 -179.04289 -16.04690841 -179.64653 -13.41985183 -165.42676
24755050000 -13.87871967 -169.18158 -16.10642591 179.82234 -16.10828691 179.18716 -13.41625049 -166.46431
25005000000 -13.80095956 -169.23026 -16.16395 178.65758 -16.17150904 178.01935 -13.36381628 -167.69476
25254950000 -13.65938557 -170.81169 -16.23661044 177.42348 -16.24722323 176.79698 -13.34043348 -168.77339
25504900000 -13.75784687 -172.01976 -16.30990996 176.26186 -16.3172504 175.64944 -13.28144625 -169.67606
25754850000 -13.6968858 -172.34128 -16.37137575 175.14093 -16.38072126 174.47203 -13.19827362 -170.89934
26004800000 -13.57403779 -173.82297 -16.4378387 173.96495 -16.44551539 173.33038 -13.16452134 -172.20779
26254750000 -13.60857594 -175.345 -16.4941739 172.85736 -16.49749576 172.15862 -13.15307563 -173.29488
26504700000 -13.65677943 -176.17564 -16.55039922 171.64143 -16.54916846 170.9612 -13.16066701 -174.17146
26754650000 -13.62455222 -176.82346 -16.61403686 170.38449 -16.61078244 169.76247 -13.1233032 -174.99709
27004600000 -13.51751379 -177.80017 -16.67058364 169.26622 -16.67965591 168.53313 -13.09698163 -176.2453
27254550000 -13.47561599 -179.40936 -16.73932376 168.19226 -16.72847536 167.39734 -13.11346773 -177.13377
27504500000 -13.52279513 179.9236 -16.78532942 167.0265 -16.78572777 166.21257 -13.07046226 -178.10864
27754450000 -13.39317568 179.61389 -16.84406668 165.92604 -16.83954892 165.04182 -13.02557529 -179.40578
28004400000 -13.31591758 177.61876 -16.90040764 164.60487 -16.89952197 163.84262 -13.04459491 179.32228
28254350000 -13.44920751 177.04161 -16.96048431 163.45551 -16.95527303 162.65393 -13.01692499 178.58046
28504300000 -13.29247621 177.09737 -17.01105854 162.32155 -17.00676512 161.49226 -12.90556587 177.49396
28754250000 -13.19049861 175.28769 -17.06218104 161.08551 -17.05856552 160.29794 -12.88913606 176.35997
29004200000 -13.26138924 174.35234 -17.11476197 159.90311 -17.10884835 159.11995 -12.85135784 175.3793
29254150000 -13.2333886 173.67776 -17.16268386 158.80644 -17.16297019 157.92697 -12.822994 174.42442
29504100000 -13.20952351 173.01277 -17.21281546 157.57997 -17.2104199 156.73932 -12.77358691 173.59972
29754050000 -13.09120751 171.97183 -17.27011347 156.39577 -17.26150598 155.60153 -12.7679516 172.6115
30004000000 -13.19983771 170.33083 -17.32156821 155.22523 -17.31560588 154.35468 -12.75570317 171.85307
30253950000 -13.16723937 170.78143 -17.3757384 154.0555 -17.36347144 153.19174 -12.69687294 171.07253
30503900000 -12.97441963 169.16866 -17.41389077 152.86884 -17.41106839 151.96332 -12.7096476 169.79692
30753850000 -13.07647467 167.81731 -17.46062431 151.63281 -17.46344597 150.82057 -12.70100662 168.99698
31003800000 -13.04903013 167.69968 -17.51149241 150.49055 -17.50341786 149.67296 -12.65030304 168.15231
31253750000 -12.95073496 166.87813 -17.557248 149.27292 -17.54772456 148.41789 -12.60014975 167.13707
31503700000 -12.85239722 165.6776 -17.59367983 148.11368 -17.5919826 147.21043 -12.60475071 165.83311
31753650000 -12.92907211 164.34756 -17.65157698 146.85657 -17.64454999 146.00357 -12.57874846 165.04044
32003600000 -12.94219815 164.74126 -17.69424635 145.75716 -17.68588241 144.86302 -12.48851007 164.33943
32253550000 -12.71962429 163.54758 -17.73321139 144.51744 -17.72825296 143.63751 -12.46912181 163.13947
32503500000 -12.79075645 161.78163 -17.78716086 143.26247 -17.78116096 142.40993 -12.44422312 162.32726
32753450000 -12.86238238 161.7321 -17.82585881 142.08298 -17.82394591 141.23128 -12.40119468 161.48633
33003400000 -12.72293525 161.09541 -17.86614569 140.8981 -17.86121061 140.01114 -12.38726861 160.60667
33253350000 -12.67433424 159.77715 -17.91827202 139.69891 -17.91210714 138.79057 -12.38540679 159.7395
33503300000 -12.72436642 158.98059 -17.95819361 138.53836 -17.949261 137.61848 -12.36271669 159.26894
33753250000 -12.64358892 158.93254 -17.99907285 137.32866 -17.99294757 136.3795 -12.27542403 158.21455
34003200000 -12.50102823 157.42709 -18.03727903 136.10161 -18.03698247 135.18863 -12.26401006 157.03766
34253150000 -12.56830125 156.61568 -18.08340512 134.90346 -18.07657414 133.96283 -12.27356497 156.27945
34503100000 -12.51741728 156.21364 -18.12095148 133.68668 -18.12201077 132.78204 -12.21004483 155.56848
34753050000 -12.51613759 155.77876 -18.15017121 132.46461 -18.15882036 131.52988 -12.16022873 154.77087
35003000000 -12.3508235 155.40694 -18.19524467 131.31627 -18.18531509 130.37343 -12.13080757 153.9332
35252950000 -12.39641433 153.32333 -18.24218696 129.95758 -18.23505563 129.05739 -12.09744898 153.11024
35502900000 -12.52172528 154.19588 -18.27744446 128.8558 -18.27096459 127.9381 -12.01402393 152.48953
35752850000 -12.20586456 153.2049 -18.3121054 127.58944 -18.31000372 126.72701 -12.03004597 151.42058
36002800000 -12.43633765 151.35957 -18.36035983 126.47083 -18.3561918 125.50791 -12.00475224 151.2426
36252750000 -12.35997523 152.37914 -18.37596908 125.21744 -18.37584011 124.28599 -11.90983603 150.44225
36502700000 -12.23064191 150.35042 -18.42779512 123.97113 -18.43912714 123.05706 -11.95593513 149.54492
36752650000 -12.36205332 150.08842 -18.47913388 122.81221 -18.47627419 121.92817 -11.93031913 149.03879
37002600000 -12.17394233 149.47379 -18.51144517 121.59154 -18.51206356 120.67644 -11.9222192 147.95412
37252550000 -12.28381884 148.1933 -18.54636164 120.47536 -18.55258857 119.52398 -11.92044244 147.61116
37502500000 -12.17247239 148.98569 -18.5686955 119.15688 -18.58073005 118.26351 -11.83741791 146.72104
37752450000 -12.03970494 146.95747 -18.62735277 117.90879 -18.62585927 117.02116 -11.84131486 145.63368
38002400000 -12.19509855 146.50131 -18.66691103 116.77419 -18.66400227 115.80893 -11.81662361 145.08064
38252350000 -12.11192364 146.82079 -18.69113513 115.59748 -18.6991805 114.63362 -11.77361435 144.22011
38502300000 -12.03285392 145.75154 -18.72436329 114.39893 -18.73156129 113.39476 -11.74154593 143.57011
38752250000 -12.04365098 144.9379 -18.75168565 113.15234 -18.75095218 112.1841 -11.70044084 143.01604
39002200000 -12.08379896 144.6033 -18.7837995 111.93542 -18.79294782 110.90558 -11.65171248 142.47586
39252150000 -11.96453458 144.18178 -18.82411861 110.6996 -18.83560857 109.65542 -11.62840472 141.62001
39502100000 -12.03324823 142.81128 -18.86934707 109.39736 -18.87942728 108.4957 -11.61987106 141.097
39752050000 -11.9890475 142.63646 -18.89581587 108.25849 -18.9053778 107.3041 -11.58259095 140.43849
40002000000 -11.97051305 141.45789 -18.93611008 107.00372 -18.92645056 106.06639 -11.59424633 140.12068
40251950000 -11.96226884 141.73532 -18.96116254 105.73582 -18.95755189 104.78996 -11.51986572 139.261
40501900000 -11.75610671 139.8436 -19.01312721 104.44601 -18.99983011 103.4541 -11.56939918 138.17871
40751850000 -12.0210466 139.05995 -19.06160461 103.34931 -19.05470597 102.30618 -11.59804557 138.21825
41001800000 -11.84290673 140.03664 -19.09220321 102.14915 -19.08201775 101.05881 -11.47908928 137.20137
41251750000 -11.72050446 137.85321 -19.11911691 100.9291 -19.11120403 99.822998 -11.52709125 136.29158
41501700000 -11.87378716 137.76376 -19.14369061 99.726585 -19.14069091 98.60527 -11.51395825 135.91013
41751650000 -11.77697958 137.29968 -19.18392524 98.389175 -19.18503545 97.291534 -11.47095509 135.20949
42001600000 -11.79425145 137.01993 -19.22006087 97.228882 -19.22465772 96.12072 -11.43543523 134.60428
42251550000 -11.63848571 136.29266 -19.26500347 96.023277 -19.26065804 94.899406 -11.43832672 133.69826
42501500000 -11.82447448 134.80667 -19.28273808 94.859589 -19.27735907 93.754997 -11.44378465 133.78085
42751450000 -11.7726748 136.30075 -19.30485436 93.515755 -19.3059681 92.402245 -11.31417532 132.92569
43001400000 -11.50457265 134.27202 -19.3706988 92.24913 -19.35615936 91.153954 -11.41100175 131.78621
43251350000 -11.7876277 133.29913 -19.4009096 91.108795 -19.4016725 90.012169 -11.42597934 131.86368
43501300000 -11.67784009 134.26245 -19.42120483 89.91127 -19.42568501 88.845436 -11.33354943 131.30789
43751250000 -11.54910105 133.21831 -19.44348061 88.671532 -19.44870919 87.617828 -11.32002644 130.34789
44001200000 -11.52715085 132.24634 -19.47225147 87.352951 -19.47547911 86.330498 -11.35979976 129.70796
44251150000 -11.59769727 131.67781 -19.50089569 86.164978 -19.51694646 85.03511 -11.34307126 129.50484
44501100000 -11.56750692 132.07863 -19.55000732 84.899651 -19.56180409 83.801636 -11.24236309 128.62132
44751050000 -11.39599351 131.3952 -19.57566476 83.770325 -19.59212624 82.655357 -11.2891003 127.74224
45001000000 -11.45200186 130.18407 -19.60497133 82.596443 -19.612691 81.440285 -11.30457785 127.75208
45250950000 -11.55193309 130.45184 -19.62097047 81.220131 -19.63604035 80.110352 -11.20401144 127.31438
45500900000 -11.43334646 130.98764 -19.67250733 79.981033 -19.67866244 78.821091 -11.17385208 126.17503
45750850000 -11.29755 128.77979 -19.71696444 78.761284 -19.72407414 77.552711 -11.27402241 125.74403
46000800000 -11.63503743 128.42477 -19.74752782 77.588814 -19.75038677 76.491669 -11.20024064 126.19118
46250750000 -11.41257355 129.97757 -19.77946417 76.364693 -19.77642295 75.15152 -11.13092024 125.09513
46500700000 -11.26859061 127.31947 -19.82931828 75.145714 -19.8351739 73.918221 -11.19844287 124.39195
46750650000 -11.48037347 127.3608 -19.84851437 73.942841 -19.84042457 72.700142 -11.18081041 124.38635
47000600000 -11.30717609 127.0044 -19.89209164 72.671135 -19.88042737 71.404816 -11.13936644 123.66992
47250550000 -11.38982701 126.71468 -19.9285949 71.451782 -19.92918503 70.250679 -11.09393339 123.04519
