# HZ S DB R 50
10000000 -13.71963292 -1.706133 -1.960752132 0.034095671 -2.007783929 0.29496539 -13.74833756 -1.4775039
259950000 -13.93416125 -4.4444709 -1.917998893 -4.1528077 -1.920699441 -4.1810651 -13.90772578 -3.3598316
509900000 -13.78213577 -12.022788 -2.084681654 -6.8148699 -2.085121358 -6.8486295 -13.64740849 -10.541874
759850000 -14.03633598 -21.267296 -2.15774259 -9.7484512 -2.155458375 -9.7990675 -13.99475554 -21.112486
1009800000 -15.3465855 -19.149027 -2.213760517 -13.7992 -2.21144483 -13.872979 -15.21487805 -19.516527
1259750000 -15.57348912 -31.134748 -2.273875076 -15.52646 -2.27311968 -15.602148 -15.56805438 -30.479809
1509700000 -17.08043147 -23.589922 -2.520336572 -19.720026 -2.516601867 -19.794865 -17.16964751 -21.00631
1759650000 -15.87707223 -14.400732 -2.667980018 -20.916782 -2.659790084 -20.993675 -15.50628032 -14.708889
2009600000 -15.12705755 -28.445894 -2.537825898 -24.49391 -2.533239605 -24.595388 -15.43385957 -28.235071
2259550000 -15.70983124 -29.483273 -2.75128798 -27.238312 -2.749428339 -27.345934 -15.90641144 -23.91626
2509500000 -15.41341812 -29.250223 -2.887939594 -30.261129 -2.885208312 -30.382889 -14.91697829 -29.865601
2759450000 -14.72780642 -37.449986 -3.080183122 -32.870342 -3.080490843 -32.996231 -15.11840004 -36.054825
3009400000 -15.79025331 -41.742214 -3.178767849 -34.970379 -3.178658138 -35.09959 -16.03839892 -36.195549
3259350000 -15.61521431 -47.429382 -3.336390339 -37.286903 -3.337358138 -37.421974 -15.62131714 -45.110855
3509300000 -16.69839431 -48.234184 -3.348072226 -40.547344 -3.350520605 -40.675705 -17.12783057 -46.070004
3759250000 -16.49198593 -47.765526 -3.734559815 -42.876823 -3.73551239 -42.995514 -17.41278157 -44.242893
4009200000 -16.87207574 -52.38549 -3.789535268 -44.700924 -3.789352665 -44.848682 -17.41880842 -43.665051
4259150000 -16.80329047 -52.886631 -3.970952294 -47.062469 -3.969453486 -47.207367 -17.13470511 -48.896053
4509100000 -17.29975263 -51.5509 -4.033793198 -49.762432 -4.034210015 -49.891388 -18.14220602 -47.448193
4759050000 -16.32754166 -53.900581 -4.315752343 -52.432301 -4.316571816 -52.564243 -17.15811007 -47.91293
5009000000 -16.89026462 -61.704502 -4.492424702 -54.41074 -4.49297354 -54.549259 -17.51729839 -53.761333
5258950000 -17.33540507 -64.053017 -4.712577501 -56.15778 -4.712662976 -56.306904 -18.19471758 -59.774696
5508900000 -17.8652041 -60.628906 -4.814296253 -58.434387 -4.816840735 -58.606091 -19.1432664 -52.810486
5758850000 -17.32945431 -61.47971 -5.060723163 -60.799244 -5.061697695 -60.98637 -18.47132756 -51.032829
6008800000 -17.4388995 -64.794556 -5.319735428 -62.374462 -5.319359166 -62.590515 -18.20323748 -55.415302
6258750000 -17.899547 -64.799225 -5.370832305 -63.926048 -5.37015595 -64.136604 -19.02210829 -55.649986
6508700000 -17.4385994 -62.151402 -5.562654978 -66.945442 -5.562542917 -67.147667 -18.6465783 -50.061184
6758650000 -16.86317202 -64.73761 -5.880847377 -68.969208 -5.878883098 -69.194817 -17.89188389 -52.870815
7008600000 -16.41815011 -68.97316 -6.209157847 -70.423851 -6.206202827 -70.637779 -17.49552398 -56.491699
7258550000 -16.5112958 -71.978996 -6.410546086 -71.746704 -6.408528241 -71.966614 -17.52784963 -59.684425
7508500000 -16.23076888 -74.683723 -6.66582711 -73.185623 -6.665508274 -73.412827 -17.27875236 -61.946907
7758450000 -16.17779304 -80.650581 -6.882438693 -73.87735 -6.880380124 -74.115036 -17.16201349 -67.760582
8008400000 -16.69233301 -83.140762 -6.981720693 -75.427895 -6.982834578 -75.65786 -17.79564585 -70.675453
8258350000 -16.93103365 -83.898956 -7.138775194 -76.876076 -7.137267952 -77.127426 -18.06142174 -69.991112
8508300000 -16.58292398 -82.488152 -7.393241092 -79.021545 -7.393010576 -79.286209 -17.68428617 -69.045464
8758250000 -16.35026323 -87.991814 -7.644503523 -79.39785 -7.641575972 -79.667038 -17.37844591 -73.788551
9008200000 -16.54144165 -90.681084 -7.764059063 -80.457748 -7.765434239 -80.726776 -17.57731263 -77.298851
9258150000 -16.61271178 -92.212524 -7.89973222 -81.756172 -7.897805373 -82.037598 -17.73737872 -79.186981
9508100000 -16.62679344 -94.162521 -8.0459774 -83.197685 -8.046045395 -83.504478 -17.80168341 -79.481308
9758050000 -16.61288821 -95.349083 -8.222780106 -84.742943 -8.22585677 -85.032021 -17.68165657 -80.40802
10008000000 -16.37286361 -97.383858 -8.463943211 -85.900871 -8.462580598 -86.171623 -17.46036041 -83.257523
10257950000 -16.28125254 -100.66341 -8.658816434 -86.785934 -8.657182164 -87.0793 -17.53726494 -86.320335
10507900000 -16.38511248 -104.70378 -8.76724782 -87.235657 -8.767387005 -87.539597 -17.68562489 -90.927032
10757850000 -16.69382642 -106.07423 -8.848275562 -88.963974 -8.84813724 -89.263542 -18.23746258 -90.942749
11007800000 -16.65913364 -106.22112 -9.042469253 -90.560509 -9.042239983 -90.861542 -18.11554161 -90.293617
11257750000 -16.45187905 -108.29739 -9.318914584 -91.584579 -9.317248025 -91.914063 -17.73594968 -91.824219
11507700000 -16.49273356 -111.56677 -9.449347634 -91.975578 -9.448905777 -92.292603 -17.80233893 -95.781708
11757650000 -16.76090636 -112.49124 -9.519889802 -93.356323 -9.516313514 -93.698326 -18.02802734 -96.521767
12007600000 -16.60445469 -113.11311 -9.774965098 -94.638313 -9.771189686 -94.989876 -17.80252844 -96.85807
12257550000 -16.5261373 -115.54005 -9.943668649 -95.354012 -9.940908741 -95.703201 -17.69466066 -98.870392
12507500000 -16.54225655 -117.3653 -10.09518773 -96.140121 -10.09357223 -96.511879 -17.62800214 -100.85436
12757450000 -16.38964865 -118.74902 -10.30183498 -96.927345 -10.29706204 -97.305191 -17.41453442 -102.32078
13007400000 -16.2968541 -121.70448 -10.42855149 -97.215256 -10.42419757 -97.603714 -17.32450016 -105.73438
13257350000 -16.41804315 -124.46785 -10.49725686 -97.874237 -10.49048169 -98.262451 -17.55664613 -108.54799
13507300000 -16.51499813 -125.77461 -10.5943381 -98.930725 -10.59070642 -99.315384 -17.67242103 -109.67053
13757250000 -16.40228344 -127.51186 -10.74176861 -99.644226 -10.73848297 -100.06 -17.59300827 -111.93336
14007200000 -16.45720693 -130.52463 -10.80781411 -100.28746 -10.80722481 -100.68227 -17.70927946 -114.55067
14257150000 -16.66060125 -131.45653 -10.90657145 -101.49277 -10.90098766 -101.92058 -17.83437562 -115.74145
14507100000 -16.52818653 -132.37898 -11.05750604 -102.19321 -11.05523821 -102.61349 -17.76615817 -116.90664
14757050000 -16.50583125 -135.02814 -11.11997865 -102.855 -11.11517195 -103.29192 -17.74779408 -119.10452
15007000000 -16.6470935 -136.82848 -11.20283971 -103.87022 -11.19927344 -104.31076 -17.8930301 -120.83411
15256950000 -16.71893941 -137.43411 -11.29460489 -104.92603 -11.29306385 -105.34831 -17.91721678 -122.09518
15506900000 -16.62126576 -138.69435 -11.42238111 -105.83183 -11.4222779 -106.29549 -17.84184112 -123.19607
15756850000 -16.60151103 -140.75591 -11.52868518 -106.48299 -11.52803801 -106.95169 -17.77608767 -124.99184
16006800000 -16.72881329 -142.32869 -11.58558789 -107.40407 -11.58521767 -107.83381 -17.82910677 -126.67146
16256750000 -16.72405544 -142.77339 -11.69637683 -108.54549 -11.69285277 -108.98685 -17.88249029 -127.4278
16506700000 -16.59138179 -144.61057 -11.82118667 -109.28804 -11.81962993 -109.77079 -17.84135672 -128.81709
16756650000 -16.71167341 -146.76678 -11.90935967 -110.0182 -11.90924948 -110.50613 -17.88674213 -130.59514
17006600000 -16.80069752 -147.20724 -11.98608969 -110.83202 -11.99059863 -111.29861 -17.90018539 -132.12918
17256550000 -16.66722216 -148.28014 -12.05637447 -111.8875 -12.05534885 -112.36023 -17.92426482 -133.67041
17506500000 -16.68133386 -150.23897 -12.19770284 -112.73874 -12.20096151 -113.21177 -17.95195505 -134.73029
17756450000 -16.76872859 -151.23738 -12.28649812 -113.40388 -12.28605247 -113.8895 -17.87053908 -136.15009
18006400000 -16.69195139 -151.98108 -12.35032917 -114.11414 -12.35168729 -114.60413 -17.81822528 -137.73146
18256350000 -16.64270299 -153.90027 -12.40212724 -115.03761 -12.39895008 -115.49287 -17.84231538 -139.55885
18506300000 -16.75209429 -155.66939 -12.46952111 -116.21351 -12.46747299 -116.73765 -17.91657304 -140.92355
18756250000 -16.82337084 -155.8168 -12.6209862 -116.98112 -12.6178713 -117.5144 -17.80136984 -141.22639
19006200000 -16.6660268 -156.77728 -12.69038669 -117.66838 -12.68747324 -118.20806 -17.67671749 -143.1244
19256150000 -16.63822799 -159.02226 -12.74960598 -118.45642 -12.75051186 -118.97744 -17.74541252 -144.56013
19506100000 -16.81812374 -160.18901 -12.80806132 -119.37887 -12.80751447 -119.86508 -17.74922507 -145.48929
19756050000 -16.73357315 -160.14296 -12.88162781 -120.33621 -12.88200634 -120.8632 -17.76972923 -146.8138
20006000000 -16.63669162 -162.11717 -12.98371697 -121.30653 -12.97743637 -121.85497 -17.82052349 -147.71948
20255950000 -16.76046548 -163.36948 -13.08929594 -122.03858 -13.08788801 -122.59005 -17.77845009 -148.41261
20505900000 -16.73660487 -163.56479 -13.15586 -122.69207 -13.15266062 -123.2191 -17.72124654 -149.9852
20755850000 -16.58585432 -164.6339 -13.20788018 -123.48613 -13.20256365 -124.03716 -17.68466008 -151.42018
21005800000 -16.5962025 -166.28302 -13.26242488 -124.40643 -13.26041609 -124.95663 -17.75071865 -152.87122
21255750000 -16.67182226 -167.1539 -13.33449488 -125.37315 -13.33025931 -125.94466 -17.70561445 -154.13037
21505700000 -16.64708465 -167.29863 -13.42000657 -126.24638 -13.41872966 -126.81567 -17.63622912 -155.2928
21755650000 -16.497595 -168.54424 -13.49453223 -127.03431 -13.49114983 -127.61324 -17.56570419 -156.91283
22005600000 -16.61896316 -170.43443 -13.55953274 -127.88554 -13.56125515 -128.46501 -17.57850614 -157.78036
22255550000 -16.7158948 -170.21307 -13.6323995 -128.76256 -13.63215665 -129.35681 -17.51703603 -158.66104
22505500000 -16.50577664 -170.9864 -13.70408008 -129.64069 -13.70132506 -130.22884 -17.46037662 -159.82938
22755450000 -16.58171263 -173.12251 -13.78184284 -130.45155 -13.78112499 -131.03181 -17.50163721 -160.36174
23005400000 -16.71472843 -173.02141 -13.84817155 -131.1834 -13.84294776 -131.81259 -17.44397824 -161.0927
23255350000 -16.54813459 -173.46031 -13.90775722 -132.02647 -13.9024398 -132.62119 -17.37673885 -162.17313
23505300000 -16.48647323 -174.97342 -13.97336853 -132.9359 -13.97004738 -133.5209 -17.3914416 -163.41574
23755250000 -16.51079941 -175.86914 -14.04435265 -133.73474 -14.04327546 -134.36638 -17.36165834 -164.26625
24005200000 -16.52231265 -176.42581 -14.10917652 -134.5497 -14.11858544 -135.15956 -17.32130659 -165.1684
24255150000 -16.38713616 -176.67212 -14.16158658 -135.37393 -14.17063337 -135.98486 -17.23747101 -166.65427
24505100000 -16.27807063 -178.41403 -14.22514012 -136.25914 -14.2314542 -136.86909 -17.20537261 -168.12779
24755050000 -16.46542924 -179.40228 -14.2948442 -137.14754 -14.30181987 -137.7592 -17.18381767 -168.85402
25005000000 -16.40451782 -178.79532 -14.36587405 -137.9892 -14.37444265 -138.59489 -17.08820343 -169.89908
25254950000 -16.22623672 179.83319 -14.43102213 -138.76268 -14.4381012 -139.34566 -17.05471325 -170.80191
25504900000 -16.36911442 178.72557 -14.48687578 -139.55522 -14.49366785 -140.13597 -16.96599087 -171.46336
25754850000 -16.33466122 178.94072 -14.53791428 -140.36858 -14.55193921 -140.96233 -16.84187634 -172.48859
26004800000 -16.18025016 177.84349 -14.59851136 -141.24098 -14.60586649 -141.86545 -16.8049119 -173.60699
26254750000 -16.21895871 176.48648 -14.66207732 -142.1152 -14.66805295 -142.73329 -16.77431739 -174.42097
26504700000 -16.27326149 175.92342 -14.72404912 -142.94041 -14.73132147 -143.5623 -16.76200117 -174.91644
26754650000 -16.25146848 175.63663 -14.78899155 -143.74823 -14.78897153 -144.39876 -16.69912725 -175.52046
27004600000 -16.13115908 175.02571 -14.84243535 -144.54929 -14.84703798 -145.1993 -16.66405009 -176.52997
27254550000 -16.07434407 173.59468 -14.9017221 -145.31216 -14.89638764 -146.0347 -16.68055619 -177.1796
27504500000 -16.14655609 173.16911 -14.95378604 -146.12624 -14.95484089 -146.88008 -16.60996756 -177.91499
27754450000 -15.99892531 173.43089 -15.01632402 -146.95052 -15.01065905 -147.74553 -16.530866 -179.02678
28004400000 -15.88880176 171.52632 -15.0780838 -147.81285 -15.07183863 -148.60945 -16.54149473 179.83409
28254350000 -16.07187416 171.13448 -15.13653342 -148.60541 -15.13015784 -149.38719 -16.484355 179.38986
28504300000 -15.90346038 171.88066 -15.17425259 -149.36522 -15.17677805 -150.17082 -16.32709322 178.47003
28754250000 -15.76396153 170.25163 -15.23247265 -150.26779 -15.23409176 -151.01566 -16.29662272 177.52625
29004200000 -15.8605012 169.46901 -15.2855561 -151.03764 -15.27992572 -151.83853 -16.22554599 176.80511
29254150000 -15.82456744 169.18854 -15.3349861 -151.88295 -15.33657773 -152.65324 -16.1724476 176.06621
29504100000 -15.80392123 168.86932 -15.38710665 -152.67921 -15.395703 -153.44434 -16.08432756 175.4868
29754050000 -15.64721896 168.15344 -15.44522424 -153.51453 -15.44075295 -154.3243 -16.06685583 174.70433
30004000000 -15.77101368 166.49623 -15.50018894 -154.26822 -15.50216924 -155.11255 -16.02303621 174.22018
30253950000 -15.75218728 167.57191 -15.54768209 -155.07875 -15.54280887 -155.88747 -15.93444613 173.77286
30503900000 -15.49015982 166.15862 -15.59693255 -155.89687 -15.58715071 -156.6996 -15.94235182 172.61099
30753850000 -15.61325576 164.8597 -15.64473026 -156.71088 -15.64306169 -157.53116 -15.9063556 172.03484
31003800000 -15.59231608 165.22041 -15.69552198 -157.50922 -15.68941069 -158.36653 -15.81833413 171.45387
31253750000 -15.46998983 164.72472 -15.73758638 -158.35011 -15.73293656 -159.1848 -15.73804209 170.58438
31503700000 -15.33522369 163.71121 -15.77549114 -159.21631 -15.78365004 -160.01915 -15.72618341 169.39442
31753650000 -15.41366452 162.45148 -15.8411647 -159.99022 -15.83742294 -160.85609 -15.67158122 168.8432
32003600000 -15.44524943 163.41885 -15.88323376 -160.76825 -15.87655189 -161.58958 -15.522478 168.35289
32253550000 -15.15698082 162.42387 -15.9265536 -161.59267 -15.92118402 -162.42987 -15.48884363 167.21973
32503500000 -15.23983409 160.65884 -15.97948412 -162.45508 -15.97041063 -163.24283 -15.43765128 166.69835
32753450000 -15.33219042 161.05241 -16.01774835 -163.20657 -16.0116663 -164.06099 -15.35795966 166.02808
33003400000 -15.14689889 160.76347 -16.0652367 -164.07448 -16.06255521 -164.91733 -15.31168583 165.33754
33253350000 -15.0780976 159.56528 -16.11423322 -164.8269 -16.10804053 -165.68327 -15.2918286 164.68834
33503300000 -15.13132904 158.99484 -16.15538427 -165.61784 -16.14876132 -166.46605 -15.22760257 164.48929
33753250000 -15.0266655 159.37979 -16.20061646 -166.43814 -16.19232491 -167.32893 -15.09373764 163.55571
34003200000 -14.83210812 157.92027 -16.23964931 -167.24911 -16.23263926 -168.15337 -15.06391841 162.47318
34253150000 -14.91191103 157.37677 -16.2777198 -168.07468 -16.27871858 -168.94957 -15.05087458 161.90695
34503100000 -14.82961049 157.30948 -16.32355544 -168.87599 -16.32605131 -169.7623 -14.9409176 161.41605
34753050000 -14.82718444 157.13722 -16.36008414 -169.71667 -16.36954217 -170.56206 -14.86088454 160.74759
35003000000 -14.60850743 157.07506 -16.4015998 -170.49434 -16.40322144 -171.34268 -14.80259684 160.07939
35252950000 -14.65499272 154.881 -16.44516004 -171.38039 -16.44293825 -172.22241 -14.73097151 159.48769
35502900000 -14.78898201 156.4017 -16.47959421 -172.15425 -16.48208087 -173.03276 -14.5945816 158.9668
35752850000 -14.38839481 155.48872 -16.52834553 -172.98398 -16.52507414 -173.83427 -14.59640871 158.00133
36002800000 -14.66767404 153.59271 -16.56797587 -173.70094 -16.56791736 -174.57251 -14.52895071 158.15411
36252750000 -14.5521025 155.24358 -16.59402742 -174.49086 -16.58542165 -175.44127 -14.38485336 157.4906
36502700000 -14.38183692 153.08371 -16.64750977 -175.33452 -16.65075081 -176.24583 -14.41351628 156.74495
36752650000 -14.52729639 153.14059 -16.68869613 -176.14482 -16.68993317 -177.01431 -14.349601 156.39955
37002600000 -14.2806592 152.67783 -16.7276571 -176.93694 -16.72773338 -177.8317 -14.32410717 155.45172
37252550000 -14.40510291 151.51279 -16.76267068 -177.66859 -16.76495724 -178.569 -14.27872244 155.29831
37502500000 -14.23863999 152.79568 -16.79140556 -178.48557 -16.79775449 -179.37801 -14.15061467 154.53154
37752450000 -14.0767667 150.57278 -16.83758665 -179.36465 -16.83401151 179.74597 -14.13619344 153.47992
38002400000 -14.25348928 150.43861 -16.87984838 179.88522 -16.8712487 178.9389 -14.07165734 153.11508
38252350000 -14.11733309 151.06371 -16.90673701 179.13708 -16.91098552 178.18639 -13.9953703 152.37114
38502300000 -14.01276623 150.06616 -16.9396726 178.3336 -16.94660634 177.41846 -13.93514506 151.88651
38752250000 -14.01593235 149.41644 -16.96761112 177.57335 -16.96809388 176.63181 -13.84864384 151.4464
39002200000 -14.0429644 149.38225 -16.99535461 176.77487 -17.0043728 175.76074 -13.75360926 151.05257
39252150000 -13.87777743 149.05017 -17.02843982 175.87186 -17.03378161 174.94237 -13.70086702 150.26869
39502100000 -13.95171499 147.78416 -17.0845249 175.04111 -17.08641521 174.11531 -13.6407931 149.83702
39752050000 -13.87327327 147.82654 -17.10726691 174.32481 -17.1115499 173.37029 -13.57628504 149.28391
40002000000 -13.84430483 146.73064 -17.13722293 173.5076 -17.13194765 172.54622 -13.55910405 149.2148
40251950000 -13.80092382 147.3589 -17.15937824 172.6732 -17.16058395 171.69865 -13.43926393 148.39784
40501900000 -13.54925009 145.24158 -17.2112824 171.8056 -17.20199469 170.80937 -13.47169243 147.41138
40751850000 -13.84999281 144.73981 -17.25010924 171.14078 -17.24407368 170.06166 -13.44821758 147.68423
41001800000 -13.59054486 146.08504 -17.27927877 170.31769 -17.27628269 169.26613 -13.29742168 146.60199
41251750000 -13.45338704 143.61598 -17.30606715 169.57082 -17.30580599 168.4781 -13.32195542 145.81023
41501700000 -13.61389089 143.88849 -17.32624998 168.75935 -17.32754741 167.65996 -13.26851927 145.63858
41751650000 -13.46678882 143.50133 -17.36645413 167.85892 -17.36343233 166.75487 -13.18624585 144.89767
42001600000 -13.46830785 143.42862 -17.39201026 167.0567 -17.3973674 166.00832 -13.11057352 144.38841
42251550000 -13.27128046 142.67889 -17.4277393 166.31091 -17.43418184 165.23474 -13.09488207 143.53613
42501500000 -13.49032711 141.29916 -17.44721336 165.61836 -17.45037197 164.52875 -13.04856505 143.83659
42751450000 -13.36509363 143.28439 -17.46995012 164.66359 -17.46546988 163.60902 -12.87685721 142.91162
43001400000 -13.06198872 140.89688 -17.51656288 163.83525 -17.51051675 162.82292 -12.96050403 141.90959
43251350000 -13.37909737 140.2403 -17.5439621 163.16339 -17.5447379 162.05165 -12.92467193 142.14105
43501300000 -13.19644748 141.45168 -17.5631004 162.3134 -17.56594046 161.28683 -12.79607003 141.57182
43751250000 -13.03823157 140.34911 -17.57574278 161.5211 -17.58267156 160.48637 -12.75565715 140.65604
44001200000 -13.00218284 139.45906 -17.59434551 160.65836 -17.59750868 159.59486 -12.76529562 140.13266
44251150000 -13.05423475 139.0401 -17.62168707 159.8253 -17.62965947 158.73563 -12.70134474 140.03755
44501100000 -12.96627807 139.6275 -17.66011493 158.96159 -17.67416129 157.87697 -12.5663419 139.05385
44751050000 -12.76258156 138.83818 -17.68545121 158.22235 -17.6945674 157.19566 -12.59378233 138.26738
45001000000 -12.8241258 137.71022 -17.69228163 157.50008 -17.70713457 156.41362 -12.5634727 138.4529
45250950000 -12.89414836 138.22865 -17.71325175 156.59592 -17.72758696 155.56393 -12.40962282 137.95964
45500900000 -12.70827287 138.87746 -17.74954146 155.73601 -17.76458002 154.69014 -12.36326256 136.79082
45750850000 -12.57539004 136.39003 -17.79851041 154.96848 -17.80633512 153.85472 -12.43109821 136.54787
46000800000 -12.92945618 136.45113 -17.81392579 154.20604 -17.81762126 153.10844 -12.29045244 136.99133
46250750000 -12.61411619 138.07712 -17.84005407 153.40285 -17.8314532 152.24368 -12.19745238 135.82957
46500700000 -12.47747441 135.18843 -17.87289061 152.61668 -17.87345428 151.42168 -12.24070549 135.24625
46750650000 -12.67799173 135.58284 -17.88840395 151.82375 -17.8816497 150.65157 -12.17243289 135.27243
47000600000 -12.45957915 135.16078 -17.91631064 150.98875 -17.91189951 149.76004 -12.10186323 134.54018
